
T206C 000:425 SEGGER J-Link V4.80g Log File (0001ms, 0261ms total)
T206C 000:425 DLL Compiled: Feb 13 2014 20:50:02 (0001ms, 0261ms total)
T206C 000:425 Logging started @ 2018-04-22 16:28 (0001ms, 0261ms total)
T206C 000:426 JLINK_SetWarnOutHandler(...) (0000ms, 0261ms total)
T206C 000:426 JLINK_OpenEx(...)
Firmware: J-Link V9 compiled Feb  2 2016 18:43:46
Hardware: V9.40
S/N: 59425868
Feature(s): RDI, GDB, FlashDL, FlashBP, JFlash, RDDI  returns O.K. (0258ms, 0519ms total)
T206C 000:684 JLINK_SetErrorOutHandler(...) (0000ms, 0519ms total)
T206C 000:684 JLINK_ExecCommand("ProjectFile = "C:\Users\lenovo\Desktop\邰工新项目\电梯测速显示和打印项目\USER\JLinkSettings.ini"", ...)  returns 0x00 (0000ms, 0519ms total)
T206C 000:691 JLINK_ExecCommand("Device = STM32F103RB", ...)Device "STM32F103RB" selected (128 KB flash, 20 KB RAM).  returns 0x00 (0003ms, 0522ms total)
T206C 000:694 JLINK_ExecCommand("DisableConnectionTimeout", ...)  returns 0x01 (0000ms, 0522ms total)
T206C 000:694 JLINK_GetHardwareVersion()  returns 0x16F30 (0000ms, 0522ms total)
T206C 000:694 JLINK_GetDLLVersion()  returns 48007 (0000ms, 0522ms total)
T206C 000:694 JLINK_GetFirmwareString(...) (0000ms, 0522ms total)
T206C 000:702 JLINK_GetDLLVersion()  returns 48007 (0000ms, 0522ms total)
T206C 000:702 JLINK_GetCompileDateTime() (0000ms, 0522ms total)
T206C 000:704 JLINK_GetFirmwareString(...) (0000ms, 0522ms total)
T206C 000:707 JLINK_GetHardwareVersion()  returns 0x16F30 (0000ms, 0522ms total)
T206C 000:713 JLINK_TIF_Select(JLINKARM_TIF_SWD)  returns 0x00 (0001ms, 0523ms total)
T206C 000:714 JLINK_SetSpeed(2000) (0000ms, 0523ms total)
T206C 000:714 JLINK_GetId() >0x108 TIF>Found SWD-DP with ID 0x1BA01477 >0x0D TIF> >0x28 TIF> >0x0D TIF> >0x28 TIF> >0x0D TIF> >0x21 TIF> >0x0D TIF> >0x28 TIF> >0x0D TIF> >0x28 TIF> >0x0D TIF> >0x28 TIF> >0x0D TIF> >0x21 TIF> >0x0D TIF> >0x21 TIF> >0x0D TIF> >0x28 TIF> >0x0D TIF> >0x21 TIF> >0x0D TIF> >0x21 TIF> >0x108 TIF>Found SWD-DP with ID 0x1BA01477 >0x0D TIF> >0x21 TIF> >0x0D TIF> >0x28 TIF> >0x0D TIF> >0x28 TIF> >0x0D TIF> >0x21 TIF> >0x0D TIF> >0x28 TIF> >0x0D TIF> >0x21 TIF> >0x0D TIF> >0x21 TIF>
 >0x0D TIF> >0x21 TIF> >0x0D TIF> >0x21 TIF> >0x0D TIF> >0x28 TIF> >0x0D TIF> >0x28 TIF> >0x0D TIF> >0x21 TIF> >0x0D TIF> >0x28 TIF> >0x0D TIF> >0x28 TIF> >0x0D TIF> >0x28 TIF> >0x0D TIF> >0x21 TIF> >0x0D TIF> >0x21 TIF> >0x0D TIF> >0x28 TIF> >0x0D TIF> >0x21 TIF> >0x0D TIF> >0x21 TIF>Found Cortex-M3 r1p1, Little endian. -- CPU_WriteMem(4 bytes @ 0xE0002000) -- CPU_ReadMem(4 bytes @ 0xE000EDF0) -- CPU_ReadMem(4 bytes @ 0xE0002000)FPUnit: 6 code (BP) slots and 2 literal slots
 -- CPU_ReadMem(4 bytes @ 0xE000EDFC) -- CPU_ReadMem(4 bytes @ 0xE0001000) -- CPU_WriteMem(4 bytes @ 0xE0001000) -- CPU_ReadMem(4 bytes @ 0xE00FF010)TPIU fitted. -- CPU_ReadMem(4 bytes @ 0xE00FF014) -- CPU_ReadMem(4 bytes @ 0xE00FF018) >0x0D TIF> >0x21 TIF>  returns 0x1BA01477 (0021ms, 0544ms total)
T206C 000:735 JLINK_GetDeviceFamily()  returns 3 (0001ms, 0545ms total)
T206C 000:737 JLINK_ReadMem (0xE00FFFF0, 0x0010 Bytes, ...) -- CPU is running -- CPU_ReadMem(16 bytes @ 0xE00FFFF0) -- Data:  0D 00 00 00 10 00 00 00 05 00 00 00 B1 00 00 00  returns 0x00 (0000ms, 0545ms total)
T206C 000:737 JLINK_ReadMem (0xE00FFFD0, 0x0020 Bytes, ...) -- CPU is running -- CPU_ReadMem(32 bytes @ 0xE00FFFD0) -- Data:  00 00 00 00 00 00 00 00 00 00 00 00 00 00 00 00 ...  returns 0x00 (0001ms, 0546ms total)
T206C 000:738 JLINK_ReadMem (0xE00FF000, 0x0018 Bytes, ...) -- CPU is running -- CPU_ReadMem(24 bytes @ 0xE00FF000) -- Data:  03 F0 F0 FF 03 20 F0 FF 03 30 F0 FF 03 10 F0 FF ...  returns 0x00 (0000ms, 0546ms total)
T206C 000:738 JLINK_ReadMemU32(0xE000ED00, 0x0001 Items, ...) -- CPU is running -- CPU_ReadMem(4 bytes @ 0xE000ED00) -- Data:  31 C2 1F 41  returns 0x01 (0001ms, 0547ms total)
T206C 000:739 JLINK_SetResetType(JLINKARM_RESET_TYPE_NORMAL)  returns JLINKARM_RESET_TYPE_NORMAL (0000ms, 0547ms total)
T206C 000:739 JLINK_Reset() -- CPU is running -- CPU_WriteMem(4 bytes @ 0xE000EDF0) -- CPU is running -- CPU_WriteMem(4 bytes @ 0xE000EDFC) >0x35 TIF> -- CPU is running -- CPU_WriteMem(4 bytes @ 0xE000ED0C) -- CPU is running -- CPU_ReadMem(4 bytes @ 0xE000EDF0) -- CPU is running -- CPU_ReadMem(4 bytes @ 0xE000EDF0) -- CPU is running -- CPU_WriteMem(4 bytes @ 0xE000EDF0) -- CPU is running -- CPU_WriteMem(4 bytes @ 0xE000EDFC) -- CPU is running -- CPU_ReadMem(4 bytes @ 0xE000EDF0)
 -- CPU_WriteMem(4 bytes @ 0xE0002000) -- CPU_ReadMem(4 bytes @ 0xE000EDFC) -- CPU_ReadMem(4 bytes @ 0xE0001000) (0018ms, 0565ms total)
T206C 000:757 JLINK_Halt()  returns 0x00 (0000ms, 0565ms total)
T206C 000:757 JLINK_IsHalted()  returns TRUE (0000ms, 0565ms total)
T206C 000:757 JLINK_ReadMemU32(0xE000EDF0, 0x0001 Items, ...) -- CPU_ReadMem(4 bytes @ 0xE000EDF0) -- Data:  03 00 03 00  returns 0x01 (0000ms, 0565ms total)
T206C 000:757 JLINK_WriteU32(0xE000EDF0, 0xA05F0003) -- CPU_WriteMem(4 bytes @ 0xE000EDF0)  returns 0x00 (0001ms, 0566ms total)
T206C 000:758 JLINK_WriteU32(0xE000EDFC, 0x01000000) -- CPU_WriteMem(4 bytes @ 0xE000EDFC)  returns 0x00 (0000ms, 0566ms total)
T206C 000:762 JLINK_GetHWStatus(...)  returns 0x00 (0000ms, 0566ms total)
T206C 000:766 JLINK_GetNumBPUnits(Type = 0xFFFFFF00)  returns 0x06 (0000ms, 0566ms total)
T206C 000:766 JLINK_GetNumBPUnits(Type = 0xF0)  returns 0x2000 (0000ms, 0566ms total)
T206C 000:766 JLINK_GetNumWPUnits()  returns 0x04 (0000ms, 0566ms total)
T206C 000:770 JLINK_GetSpeed()  returns 0x7D0 (0000ms, 0566ms total)
T206C 000:773 JLINK_ReadMemU32(0xE000E004, 0x0001 Items, ...) -- CPU_ReadMem(4 bytes @ 0xE000E004) -- Data:  01 00 00 00  returns 0x01 (0000ms, 0566ms total)
T206C 000:773 JLINK_ReadMemU32(0xE000E004, 0x0001 Items, ...) -- CPU_ReadMem(4 bytes @ 0xE000E004) -- Data:  01 00 00 00  returns 0x01 (0001ms, 0567ms total)
T206C 000:774 JLINK_WriteMem(0xE0001000, 0x001C Bytes, ...) -- Data:  01 00 00 00 00 00 00 00 00 00 00 00 00 00 00 00 ... -- CPU_WriteMem(28 bytes @ 0xE0001000)  returns 0x1C (0000ms, 0567ms total)
T206C 000:774 JLINK_ReadMem (0xE0001000, 0x001C Bytes, ...) -- CPU_ReadMem(28 bytes @ 0xE0001000) -- Data:  01 00 00 40 00 00 00 00 00 00 00 00 00 00 00 00 ...  returns 0x00 (0001ms, 0568ms total)
T206C 000:775 JLINK_Halt()  returns 0x00 (0000ms, 0568ms total)
T206C 000:775 JLINK_IsHalted()  returns TRUE (0000ms, 0568ms total)
T206C 000:779 JLINK_WriteMem(0x20000000, 0x0164 Bytes, ...) -- Data:  00 BE 0A E0 0D 78 2D 06 68 40 08 24 40 00 00 D3 ... -- CPU_WriteMem(356 bytes @ 0x20000000)  returns 0x164 (0003ms, 0571ms total)
T206C 000:782 JLINK_WriteReg(R0, 0x08000000)  returns 0x00 (0000ms, 0571ms total)
T206C 000:782 JLINK_WriteReg(R1, 0x007A1200)  returns 0x00 (0000ms, 0571ms total)
T206C 000:782 JLINK_WriteReg(R2, 0x00000001)  returns 0x00 (0000ms, 0571ms total)
T206C 000:782 JLINK_WriteReg(R3, 0x00000000)  returns 0x00 (0000ms, 0571ms total)
T206C 000:782 JLINK_WriteReg(R4, 0x00000000)  returns 0x00 (0000ms, 0571ms total)
T206C 000:782 JLINK_WriteReg(R5, 0x00000000)  returns 0x00 (0000ms, 0571ms total)
T206C 000:782 JLINK_WriteReg(R6, 0x00000000)  returns 0x00 (0000ms, 0571ms total)
T206C 000:782 JLINK_WriteReg(R7, 0x00000000)  returns 0x00 (0000ms, 0571ms total)
T206C 000:782 JLINK_WriteReg(R8, 0x00000000)  returns 0x00 (0000ms, 0571ms total)
T206C 000:782 JLINK_WriteReg(R9, 0x20000160)  returns 0x00 (0000ms, 0571ms total)
T206C 000:782 JLINK_WriteReg(R10, 0x00000000)  returns 0x00 (0000ms, 0571ms total)
T206C 000:782 JLINK_WriteReg(R11, 0x00000000)  returns 0x00 (0000ms, 0571ms total)
T206C 000:782 JLINK_WriteReg(R12, 0x00000000)  returns 0x00 (0000ms, 0571ms total)
T206C 000:782 JLINK_WriteReg(R13 (SP), 0x20000800)  returns 0x00 (0000ms, 0571ms total)
T206C 000:782 JLINK_WriteReg(R14, 0x20000001)  returns 0x00 (0000ms, 0571ms total)
T206C 000:782 JLINK_WriteReg(R15 (PC), 0x20000038)  returns 0x00 (0000ms, 0571ms total)
T206C 000:782 JLINK_WriteReg(XPSR, 0x01000000)  returns 0x00 (0000ms, 0571ms total)
T206C 000:783 JLINK_WriteReg(MSP, 0x20000800)  returns 0x00 (0000ms, 0572ms total)
T206C 000:783 JLINK_WriteReg(PSP, 0x20000800)  returns 0x00 (0000ms, 0572ms total)
T206C 000:783 JLINK_WriteReg(CFBP, 0x00000000)  returns 0x00 (0000ms, 0572ms total)
T206C 000:783 JLINK_SetBPEx(Addr = 0x20000000, Type = 0xFFFFFFF2) -- CPU_ReadMem(2 bytes @ 0x20000000)  returns 0x00000001 (0000ms, 0572ms total)
T206C 000:783 JLINK_Go() -- CPU_WriteMem(2 bytes @ 0x20000000) -- CPU_WriteMem(4 bytes @ 0xE0002008) -- CPU_WriteMem(4 bytes @ 0xE000200C) -- CPU_WriteMem(4 bytes @ 0xE0002010) -- CPU_WriteMem(4 bytes @ 0xE0002014) -- CPU_WriteMem(4 bytes @ 0xE0002018) -- CPU_WriteMem(4 bytes @ 0xE000201C) -- CPU_WriteMem(4 bytes @ 0xE0001004) (0005ms, 0577ms total)
T206C 000:788 JLINK_IsHalted() -- CPU_ReadMem(2 bytes @ 0x20000000)  returns TRUE (0004ms, 0581ms total)
T206C 000:792 JLINK_ReadReg(R15 (PC))  returns 0x20000000 (0000ms, 0577ms total)
T206C 000:792 JLINK_ClrBPEx(BPHandle = 0x00000001)  returns 0x00 (0000ms, 0577ms total)
T206C 000:792 JLINK_ReadReg(R0)  returns 0x00000000 (0000ms, 0577ms total)
T206C 000:792 JLINK_WriteReg(R0, 0x08000000)  returns 0x00 (0000ms, 0577ms total)
T206C 000:792 JLINK_WriteReg(R1, 0x007A1200)  returns 0x00 (0000ms, 0577ms total)
T206C 000:792 JLINK_WriteReg(R2, 0x00000001)  returns 0x00 (0000ms, 0577ms total)
T206C 000:792 JLINK_WriteReg(R3, 0x00000000)  returns 0x00 (0000ms, 0577ms total)
T206C 000:792 JLINK_WriteReg(R4, 0x00000000)  returns 0x00 (0000ms, 0577ms total)
T206C 000:792 JLINK_WriteReg(R5, 0x00000000)  returns 0x00 (0000ms, 0577ms total)
T206C 000:792 JLINK_WriteReg(R6, 0x00000000)  returns 0x00 (0000ms, 0577ms total)
T206C 000:792 JLINK_WriteReg(R7, 0x00000000)  returns 0x00 (0000ms, 0577ms total)
T206C 000:792 JLINK_WriteReg(R8, 0x00000000)  returns 0x00 (0000ms, 0577ms total)
T206C 000:792 JLINK_WriteReg(R9, 0x20000160)  returns 0x00 (0000ms, 0577ms total)
T206C 000:792 JLINK_WriteReg(R10, 0x00000000)  returns 0x00 (0000ms, 0577ms total)
T206C 000:792 JLINK_WriteReg(R11, 0x00000000)  returns 0x00 (0000ms, 0577ms total)
T206C 000:792 JLINK_WriteReg(R12, 0x00000000)  returns 0x00 (0000ms, 0577ms total)
T206C 000:792 JLINK_WriteReg(R13 (SP), 0x20000800)  returns 0x00 (0000ms, 0577ms total)
T206C 000:792 JLINK_WriteReg(R14, 0x20000001)  returns 0x00 (0000ms, 0577ms total)
T206C 000:792 JLINK_WriteReg(R15 (PC), 0x2000007C)  returns 0x00 (0000ms, 0577ms total)
T206C 000:792 JLINK_WriteReg(XPSR, 0x01000000)  returns 0x00 (0000ms, 0577ms total)
T206C 000:792 JLINK_WriteReg(MSP, 0x20000800)  returns 0x00 (0000ms, 0577ms total)
T206C 000:792 JLINK_WriteReg(PSP, 0x20000800)  returns 0x00 (0001ms, 0578ms total)
T206C 000:793 JLINK_WriteReg(CFBP, 0x00000000)  returns 0x00 (0000ms, 0578ms total)
T206C 000:793 JLINK_SetBPEx(Addr = 0x20000000, Type = 0xFFFFFFF2)  returns 0x00000002 (0000ms, 0578ms total)
T206C 000:793 JLINK_Go() (0001ms, 0579ms total)
T206C 000:794 JLINK_IsHalted()  returns FALSE (0000ms, 0579ms total)
T206C 000:904 JLINK_IsHalted() -- CPU_ReadMem(2 bytes @ 0x20000000)  returns TRUE (0004ms, 0583ms total)
T206C 000:908 JLINK_ReadReg(R15 (PC))  returns 0x20000000 (0000ms, 0579ms total)
T206C 000:908 JLINK_ClrBPEx(BPHandle = 0x00000002)  returns 0x00 (0000ms, 0579ms total)
T206C 000:908 JLINK_ReadReg(R0)  returns 0x00000000 (0000ms, 0579ms total)
T206C 000:960 JLINK_WriteReg(R0, 0x00000001)  returns 0x00 (0000ms, 0579ms total)
T206C 000:960 JLINK_WriteReg(R1, 0x007A1200)  returns 0x00 (0000ms, 0579ms total)
T206C 000:960 JLINK_WriteReg(R2, 0x00000001)  returns 0x00 (0000ms, 0579ms total)
T206C 000:960 JLINK_WriteReg(R3, 0x00000000)  returns 0x00 (0000ms, 0579ms total)
T206C 000:960 JLINK_WriteReg(R4, 0x00000000)  returns 0x00 (0000ms, 0579ms total)
T206C 000:960 JLINK_WriteReg(R5, 0x00000000)  returns 0x00 (0000ms, 0579ms total)
T206C 000:960 JLINK_WriteReg(R6, 0x00000000)  returns 0x00 (0000ms, 0579ms total)
T206C 000:960 JLINK_WriteReg(R7, 0x00000000)  returns 0x00 (0000ms, 0579ms total)
T206C 000:960 JLINK_WriteReg(R8, 0x00000000)  returns 0x00 (0000ms, 0579ms total)
T206C 000:960 JLINK_WriteReg(R9, 0x20000160)  returns 0x00 (0000ms, 0579ms total)
T206C 000:960 JLINK_WriteReg(R10, 0x00000000)  returns 0x00 (0000ms, 0579ms total)
T206C 000:960 JLINK_WriteReg(R11, 0x00000000)  returns 0x00 (0000ms, 0579ms total)
T206C 000:960 JLINK_WriteReg(R12, 0x00000000)  returns 0x00 (0000ms, 0579ms total)
T206C 000:960 JLINK_WriteReg(R13 (SP), 0x20000800)  returns 0x00 (0000ms, 0579ms total)
T206C 000:960 JLINK_WriteReg(R14, 0x20000001)  returns 0x00 (0000ms, 0579ms total)
T206C 000:960 JLINK_WriteReg(R15 (PC), 0x2000006A)  returns 0x00 (0000ms, 0579ms total)
T206C 000:960 JLINK_WriteReg(XPSR, 0x01000000)  returns 0x00 (0000ms, 0579ms total)
T206C 000:960 JLINK_WriteReg(MSP, 0x20000800)  returns 0x00 (0000ms, 0579ms total)
T206C 000:960 JLINK_WriteReg(PSP, 0x20000800)  returns 0x00 (0000ms, 0579ms total)
T206C 000:960 JLINK_WriteReg(CFBP, 0x00000000)  returns 0x00 (0000ms, 0579ms total)
T206C 000:960 JLINK_SetBPEx(Addr = 0x20000000, Type = 0xFFFFFFF2)  returns 0x00000003 (0000ms, 0579ms total)
T206C 000:960 JLINK_Go() (0002ms, 0581ms total)
T206C 000:962 JLINK_IsHalted() -- CPU_ReadMem(2 bytes @ 0x20000000)  returns TRUE (0004ms, 0585ms total)
T206C 000:966 JLINK_ReadReg(R15 (PC))  returns 0x20000000 (0000ms, 0581ms total)
T206C 000:966 JLINK_ClrBPEx(BPHandle = 0x00000003)  returns 0x00 (0000ms, 0581ms total)
T206C 000:966 JLINK_ReadReg(R0)  returns 0x00000000 (0000ms, 0581ms total)
T206C 000:970 JLINK_WriteMem(0x20000000, 0x0164 Bytes, ...) -- Data:  00 BE 0A E0 0D 78 2D 06 68 40 08 24 40 00 00 D3 ... -- CPU_WriteMem(356 bytes @ 0x20000000)  returns 0x164 (0003ms, 0584ms total)
T206C 000:973 JLINK_WriteReg(R0, 0x08000000)  returns 0x00 (0000ms, 0584ms total)
T206C 000:973 JLINK_WriteReg(R1, 0x007A1200)  returns 0x00 (0000ms, 0584ms total)
T206C 000:973 JLINK_WriteReg(R2, 0x00000002)  returns 0x00 (0000ms, 0584ms total)
T206C 000:973 JLINK_WriteReg(R3, 0x00000000)  returns 0x00 (0000ms, 0584ms total)
T206C 000:973 JLINK_WriteReg(R4, 0x00000000)  returns 0x00 (0000ms, 0584ms total)
T206C 000:973 JLINK_WriteReg(R5, 0x00000000)  returns 0x00 (0000ms, 0584ms total)
T206C 000:973 JLINK_WriteReg(R6, 0x00000000)  returns 0x00 (0000ms, 0584ms total)
T206C 000:973 JLINK_WriteReg(R7, 0x00000000)  returns 0x00 (0000ms, 0584ms total)
T206C 000:973 JLINK_WriteReg(R8, 0x00000000)  returns 0x00 (0000ms, 0584ms total)
T206C 000:973 JLINK_WriteReg(R9, 0x20000160)  returns 0x00 (0000ms, 0584ms total)
T206C 000:973 JLINK_WriteReg(R10, 0x00000000)  returns 0x00 (0000ms, 0584ms total)
T206C 000:973 JLINK_WriteReg(R11, 0x00000000)  returns 0x00 (0000ms, 0584ms total)
T206C 000:973 JLINK_WriteReg(R12, 0x00000000)  returns 0x00 (0000ms, 0584ms total)
T206C 000:973 JLINK_WriteReg(R13 (SP), 0x20000800)  returns 0x00 (0000ms, 0584ms total)
T206C 000:973 JLINK_WriteReg(R14, 0x20000001)  returns 0x00 (0000ms, 0584ms total)
T206C 000:973 JLINK_WriteReg(R15 (PC), 0x20000038)  returns 0x00 (0000ms, 0584ms total)
T206C 000:973 JLINK_WriteReg(XPSR, 0x01000000)  returns 0x00 (0000ms, 0584ms total)
T206C 000:973 JLINK_WriteReg(MSP, 0x20000800)  returns 0x00 (0000ms, 0584ms total)
T206C 000:973 JLINK_WriteReg(PSP, 0x20000800)  returns 0x00 (0000ms, 0584ms total)
T206C 000:973 JLINK_WriteReg(CFBP, 0x00000000)  returns 0x00 (0000ms, 0584ms total)
T206C 000:973 JLINK_SetBPEx(Addr = 0x20000000, Type = 0xFFFFFFF2) -- CPU_ReadMem(2 bytes @ 0x20000000)  returns 0x00000004 (0001ms, 0585ms total)
T206C 000:974 JLINK_Go() -- CPU_WriteMem(2 bytes @ 0x20000000) (0002ms, 0587ms total)
T206C 000:976 JLINK_IsHalted() -- CPU_ReadMem(2 bytes @ 0x20000000)  returns TRUE (0004ms, 0591ms total)
T206C 000:980 JLINK_ReadReg(R15 (PC))  returns 0x20000000 (0000ms, 0587ms total)
T206C 000:980 JLINK_ClrBPEx(BPHandle = 0x00000004)  returns 0x00 (0000ms, 0587ms total)
T206C 000:980 JLINK_ReadReg(R0)  returns 0x00000000 (0000ms, 0587ms total)
T206C 000:980 JLINK_WriteMem(0x20000164, 0x0400 Bytes, ...) -- Data:  98 2F 00 20 9D 44 00 08 45 01 00 08 47 01 00 08 ... -- CPU_WriteMem(1024 bytes @ 0x20000164)  returns 0x400 (0009ms, 0596ms total)
T206C 000:989 JLINK_WriteReg(R0, 0x08000000)  returns 0x00 (0000ms, 0596ms total)
T206C 000:989 JLINK_WriteReg(R1, 0x00000400)  returns 0x00 (0000ms, 0596ms total)
T206C 000:989 JLINK_WriteReg(R2, 0x20000164)  returns 0x00 (0000ms, 0596ms total)
T206C 000:989 JLINK_WriteReg(R3, 0x00000000)  returns 0x00 (0000ms, 0596ms total)
T206C 000:989 JLINK_WriteReg(R4, 0x00000000)  returns 0x00 (0000ms, 0596ms total)
T206C 000:989 JLINK_WriteReg(R5, 0x00000000)  returns 0x00 (0000ms, 0596ms total)
T206C 000:989 JLINK_WriteReg(R6, 0x00000000)  returns 0x00 (0000ms, 0596ms total)
T206C 000:989 JLINK_WriteReg(R7, 0x00000000)  returns 0x00 (0000ms, 0596ms total)
T206C 000:989 JLINK_WriteReg(R8, 0x00000000)  returns 0x00 (0000ms, 0596ms total)
T206C 000:989 JLINK_WriteReg(R9, 0x20000160)  returns 0x00 (0000ms, 0596ms total)
T206C 000:989 JLINK_WriteReg(R10, 0x00000000)  returns 0x00 (0000ms, 0596ms total)
T206C 000:989 JLINK_WriteReg(R11, 0x00000000)  returns 0x00 (0000ms, 0596ms total)
T206C 000:989 JLINK_WriteReg(R12, 0x00000000)  returns 0x00 (0001ms, 0597ms total)
T206C 000:990 JLINK_WriteReg(R13 (SP), 0x20000800)  returns 0x00 (0000ms, 0597ms total)
T206C 000:990 JLINK_WriteReg(R14, 0x20000001)  returns 0x00 (0000ms, 0597ms total)
T206C 000:990 JLINK_WriteReg(R15 (PC), 0x200000F4)  returns 0x00 (0000ms, 0597ms total)
T206C 000:990 JLINK_WriteReg(XPSR, 0x01000000)  returns 0x00 (0000ms, 0597ms total)
T206C 000:990 JLINK_WriteReg(MSP, 0x20000800)  returns 0x00 (0000ms, 0597ms total)
T206C 000:990 JLINK_WriteReg(PSP, 0x20000800)  returns 0x00 (0000ms, 0597ms total)
T206C 000:990 JLINK_WriteReg(CFBP, 0x00000000)  returns 0x00 (0000ms, 0597ms total)
T206C 000:990 JLINK_SetBPEx(Addr = 0x20000000, Type = 0xFFFFFFF2)  returns 0x00000005 (0000ms, 0597ms total)
T206C 000:990 JLINK_Go() (0002ms, 0599ms total)
T206C 000:992 JLINK_IsHalted()  returns FALSE (0000ms, 0599ms total)
T206C 001:088 JLINK_IsHalted() -- CPU_ReadMem(2 bytes @ 0x20000000)  returns TRUE (0004ms, 0603ms total)
T206C 001:092 JLINK_ReadReg(R15 (PC))  returns 0x20000000 (0000ms, 0599ms total)
T206C 001:092 JLINK_ClrBPEx(BPHandle = 0x00000005)  returns 0x00 (0000ms, 0599ms total)
T206C 001:092 JLINK_ReadReg(R0)  returns 0x00000000 (0000ms, 0599ms total)
T206C 001:093 JLINK_WriteMem(0x20000164, 0x0400 Bytes, ...) -- Data:  03 F0 B3 FF D1 48 24 38 03 F0 8C FF CF 48 18 38 ... -- CPU_WriteMem(1024 bytes @ 0x20000164)  returns 0x400 (0008ms, 0607ms total)
T206C 001:101 JLINK_WriteReg(R0, 0x08000400)  returns 0x00 (0000ms, 0607ms total)
T206C 001:101 JLINK_WriteReg(R1, 0x00000400)  returns 0x00 (0000ms, 0607ms total)
T206C 001:101 JLINK_WriteReg(R2, 0x20000164)  returns 0x00 (0000ms, 0607ms total)
T206C 001:101 JLINK_WriteReg(R3, 0x00000000)  returns 0x00 (0000ms, 0607ms total)
T206C 001:101 JLINK_WriteReg(R4, 0x00000000)  returns 0x00 (0000ms, 0607ms total)
T206C 001:101 JLINK_WriteReg(R5, 0x00000000)  returns 0x00 (0000ms, 0607ms total)
T206C 001:101 JLINK_WriteReg(R6, 0x00000000)  returns 0x00 (0000ms, 0607ms total)
T206C 001:101 JLINK_WriteReg(R7, 0x00000000)  returns 0x00 (0000ms, 0607ms total)
T206C 001:101 JLINK_WriteReg(R8, 0x00000000)  returns 0x00 (0000ms, 0607ms total)
T206C 001:102 JLINK_WriteReg(R9, 0x20000160)  returns 0x00 (0000ms, 0608ms total)
T206C 001:102 JLINK_WriteReg(R10, 0x00000000)  returns 0x00 (0000ms, 0608ms total)
T206C 001:102 JLINK_WriteReg(R11, 0x00000000)  returns 0x00 (0000ms, 0608ms total)
T206C 001:102 JLINK_WriteReg(R12, 0x00000000)  returns 0x00 (0000ms, 0608ms total)
T206C 001:102 JLINK_WriteReg(R13 (SP), 0x20000800)  returns 0x00 (0000ms, 0608ms total)
T206C 001:102 JLINK_WriteReg(R14, 0x20000001)  returns 0x00 (0000ms, 0608ms total)
T206C 001:102 JLINK_WriteReg(R15 (PC), 0x200000F4)  returns 0x00 (0000ms, 0608ms total)
T206C 001:102 JLINK_WriteReg(XPSR, 0x01000000)  returns 0x00 (0000ms, 0608ms total)
T206C 001:102 JLINK_WriteReg(MSP, 0x20000800)  returns 0x00 (0000ms, 0608ms total)
T206C 001:102 JLINK_WriteReg(PSP, 0x20000800)  returns 0x00 (0000ms, 0608ms total)
T206C 001:102 JLINK_WriteReg(CFBP, 0x00000000)  returns 0x00 (0000ms, 0608ms total)
T206C 001:102 JLINK_SetBPEx(Addr = 0x20000000, Type = 0xFFFFFFF2)  returns 0x00000006 (0000ms, 0608ms total)
T206C 001:102 JLINK_Go() (0001ms, 0609ms total)
T206C 001:103 JLINK_IsHalted()  returns FALSE (0001ms, 0610ms total)
T206C 001:179 JLINK_IsHalted() -- CPU_ReadMem(2 bytes @ 0x20000000)  returns TRUE (0004ms, 0613ms total)
T206C 001:183 JLINK_ReadReg(R15 (PC))  returns 0x20000000 (0000ms, 0609ms total)
T206C 001:183 JLINK_ClrBPEx(BPHandle = 0x00000006)  returns 0x00 (0000ms, 0609ms total)
T206C 001:183 JLINK_ReadReg(R0)  returns 0x00000000 (0000ms, 0609ms total)
T206C 001:184 JLINK_WriteMem(0x20000164, 0x0400 Bytes, ...) -- Data:  25 51 03 48 04 F0 38 FA 10 BD 00 00 B0 00 00 20 ... -- CPU_WriteMem(1024 bytes @ 0x20000164)  returns 0x400 (0008ms, 0617ms total)
T206C 001:192 JLINK_WriteReg(R0, 0x08000800)  returns 0x00 (0000ms, 0617ms total)
T206C 001:192 JLINK_WriteReg(R1, 0x00000400)  returns 0x00 (0000ms, 0617ms total)
T206C 001:192 JLINK_WriteReg(R2, 0x20000164)  returns 0x00 (0000ms, 0617ms total)
T206C 001:192 JLINK_WriteReg(R3, 0x00000000)  returns 0x00 (0000ms, 0617ms total)
T206C 001:192 JLINK_WriteReg(R4, 0x00000000)  returns 0x00 (0000ms, 0617ms total)
T206C 001:192 JLINK_WriteReg(R5, 0x00000000)  returns 0x00 (0000ms, 0617ms total)
T206C 001:192 JLINK_WriteReg(R6, 0x00000000)  returns 0x00 (0000ms, 0617ms total)
T206C 001:192 JLINK_WriteReg(R7, 0x00000000)  returns 0x00 (0000ms, 0617ms total)
T206C 001:192 JLINK_WriteReg(R8, 0x00000000)  returns 0x00 (0000ms, 0617ms total)
T206C 001:192 JLINK_WriteReg(R9, 0x20000160)  returns 0x00 (0000ms, 0617ms total)
T206C 001:192 JLINK_WriteReg(R10, 0x00000000)  returns 0x00 (0000ms, 0617ms total)
T206C 001:192 JLINK_WriteReg(R11, 0x00000000)  returns 0x00 (0000ms, 0617ms total)
T206C 001:192 JLINK_WriteReg(R12, 0x00000000)  returns 0x00 (0001ms, 0618ms total)
T206C 001:193 JLINK_WriteReg(R13 (SP), 0x20000800)  returns 0x00 (0000ms, 0618ms total)
T206C 001:193 JLINK_WriteReg(R14, 0x20000001)  returns 0x00 (0000ms, 0618ms total)
T206C 001:193 JLINK_WriteReg(R15 (PC), 0x200000F4)  returns 0x00 (0000ms, 0618ms total)
T206C 001:193 JLINK_WriteReg(XPSR, 0x01000000)  returns 0x00 (0000ms, 0618ms total)
T206C 001:193 JLINK_WriteReg(MSP, 0x20000800)  returns 0x00 (0000ms, 0618ms total)
T206C 001:193 JLINK_WriteReg(PSP, 0x20000800)  returns 0x00 (0000ms, 0618ms total)
T206C 001:193 JLINK_WriteReg(CFBP, 0x00000000)  returns 0x00 (0000ms, 0618ms total)
T206C 001:193 JLINK_SetBPEx(Addr = 0x20000000, Type = 0xFFFFFFF2)  returns 0x00000007 (0000ms, 0618ms total)
T206C 001:193 JLINK_Go() (0001ms, 0619ms total)
T206C 001:194 JLINK_IsHalted()  returns FALSE (0001ms, 0620ms total)
T206C 001:286 JLINK_IsHalted() -- CPU_ReadMem(2 bytes @ 0x20000000)  returns TRUE (0004ms, 0623ms total)
T206C 001:290 JLINK_ReadReg(R15 (PC))  returns 0x20000000 (0000ms, 0619ms total)
T206C 001:290 JLINK_ClrBPEx(BPHandle = 0x00000007)  returns 0x00 (0000ms, 0619ms total)
T206C 001:290 JLINK_ReadReg(R0)  returns 0x00000000 (0000ms, 0619ms total)
T206C 001:291 JLINK_WriteMem(0x20000164, 0x0400 Bytes, ...) -- Data:  FF F7 33 FE E0 B2 FF F7 30 FE 28 0A FF F7 2D FE ... -- CPU_WriteMem(1024 bytes @ 0x20000164)  returns 0x400 (0008ms, 0627ms total)
T206C 001:299 JLINK_WriteReg(R0, 0x08000C00)  returns 0x00 (0000ms, 0627ms total)
T206C 001:299 JLINK_WriteReg(R1, 0x00000400)  returns 0x00 (0000ms, 0627ms total)
T206C 001:299 JLINK_WriteReg(R2, 0x20000164)  returns 0x00 (0000ms, 0627ms total)
T206C 001:299 JLINK_WriteReg(R3, 0x00000000)  returns 0x00 (0000ms, 0627ms total)
T206C 001:299 JLINK_WriteReg(R4, 0x00000000)  returns 0x00 (0000ms, 0627ms total)
T206C 001:299 JLINK_WriteReg(R5, 0x00000000)  returns 0x00 (0000ms, 0627ms total)
T206C 001:299 JLINK_WriteReg(R6, 0x00000000)  returns 0x00 (0000ms, 0627ms total)
T206C 001:299 JLINK_WriteReg(R7, 0x00000000)  returns 0x00 (0000ms, 0627ms total)
T206C 001:299 JLINK_WriteReg(R8, 0x00000000)  returns 0x00 (0000ms, 0627ms total)
T206C 001:299 JLINK_WriteReg(R9, 0x20000160)  returns 0x00 (0000ms, 0627ms total)
T206C 001:299 JLINK_WriteReg(R10, 0x00000000)  returns 0x00 (0000ms, 0627ms total)
T206C 001:299 JLINK_WriteReg(R11, 0x00000000)  returns 0x00 (0000ms, 0627ms total)
T206C 001:299 JLINK_WriteReg(R12, 0x00000000)  returns 0x00 (0000ms, 0627ms total)
T206C 001:299 JLINK_WriteReg(R13 (SP), 0x20000800)  returns 0x00 (0001ms, 0628ms total)
T206C 001:300 JLINK_WriteReg(R14, 0x20000001)  returns 0x00 (0000ms, 0628ms total)
T206C 001:300 JLINK_WriteReg(R15 (PC), 0x200000F4)  returns 0x00 (0000ms, 0628ms total)
T206C 001:300 JLINK_WriteReg(XPSR, 0x01000000)  returns 0x00 (0000ms, 0628ms total)
T206C 001:300 JLINK_WriteReg(MSP, 0x20000800)  returns 0x00 (0000ms, 0628ms total)
T206C 001:300 JLINK_WriteReg(PSP, 0x20000800)  returns 0x00 (0000ms, 0628ms total)
T206C 001:300 JLINK_WriteReg(CFBP, 0x00000000)  returns 0x00 (0000ms, 0628ms total)
T206C 001:300 JLINK_SetBPEx(Addr = 0x20000000, Type = 0xFFFFFFF2)  returns 0x00000008 (0000ms, 0628ms total)
T206C 001:300 JLINK_Go() (0001ms, 0629ms total)
T206C 001:301 JLINK_IsHalted()  returns FALSE (0001ms, 0630ms total)
T206C 001:304 JLINK_IsHalted()  returns FALSE (0000ms, 0629ms total)
T206C 001:306 JLINK_IsHalted()  returns FALSE (0000ms, 0629ms total)
T206C 001:308 JLINK_IsHalted()  returns FALSE (0000ms, 0629ms total)
T206C 001:311 JLINK_IsHalted()  returns FALSE (0000ms, 0629ms total)
T206C 001:313 JLINK_IsHalted()  returns FALSE (0000ms, 0629ms total)
T206C 001:315 JLINK_IsHalted()  returns FALSE (0000ms, 0629ms total)
T206C 001:317 JLINK_IsHalted()  returns FALSE (0000ms, 0629ms total)
T206C 001:321 JLINK_IsHalted()  returns FALSE (0001ms, 0630ms total)
T206C 001:324 JLINK_IsHalted()  returns FALSE (0000ms, 0629ms total)
T206C 001:326 JLINK_IsHalted()  returns FALSE (0000ms, 0629ms total)
T206C 001:328 JLINK_IsHalted()  returns FALSE (0000ms, 0629ms total)
T206C 001:330 JLINK_IsHalted()  returns FALSE (0000ms, 0629ms total)
T206C 001:332 JLINK_IsHalted()  returns FALSE (0000ms, 0629ms total)
T206C 001:334 JLINK_IsHalted() -- CPU_ReadMem(2 bytes @ 0x20000000)  returns TRUE (0003ms, 0632ms total)
T206C 001:337 JLINK_ReadReg(R15 (PC))  returns 0x20000000 (0000ms, 0629ms total)
T206C 001:337 JLINK_ClrBPEx(BPHandle = 0x00000008)  returns 0x00 (0000ms, 0629ms total)
T206C 001:337 JLINK_ReadReg(R0)  returns 0x00000000 (0000ms, 0629ms total)
T206C 001:338 JLINK_WriteMem(0x20000164, 0x0400 Bytes, ...) -- Data:  FF 20 FF F7 32 FC FC 20 FF F7 2F FC FF 20 FF F7 ... -- CPU_WriteMem(1024 bytes @ 0x20000164)  returns 0x400 (0008ms, 0637ms total)
T206C 001:346 JLINK_WriteReg(R0, 0x08001000)  returns 0x00 (0000ms, 0637ms total)
T206C 001:346 JLINK_WriteReg(R1, 0x00000400)  returns 0x00 (0000ms, 0637ms total)
T206C 001:346 JLINK_WriteReg(R2, 0x20000164)  returns 0x00 (0000ms, 0637ms total)
T206C 001:346 JLINK_WriteReg(R3, 0x00000000)  returns 0x00 (0000ms, 0637ms total)
T206C 001:346 JLINK_WriteReg(R4, 0x00000000)  returns 0x00 (0000ms, 0637ms total)
T206C 001:346 JLINK_WriteReg(R5, 0x00000000)  returns 0x00 (0000ms, 0637ms total)
T206C 001:346 JLINK_WriteReg(R6, 0x00000000)  returns 0x00 (0000ms, 0637ms total)
T206C 001:346 JLINK_WriteReg(R7, 0x00000000)  returns 0x00 (0000ms, 0637ms total)
T206C 001:346 JLINK_WriteReg(R8, 0x00000000)  returns 0x00 (0000ms, 0637ms total)
T206C 001:346 JLINK_WriteReg(R9, 0x20000160)  returns 0x00 (0000ms, 0637ms total)
T206C 001:346 JLINK_WriteReg(R10, 0x00000000)  returns 0x00 (0000ms, 0637ms total)
T206C 001:346 JLINK_WriteReg(R11, 0x00000000)  returns 0x00 (0000ms, 0637ms total)
T206C 001:346 JLINK_WriteReg(R12, 0x00000000)  returns 0x00 (0000ms, 0637ms total)
T206C 001:346 JLINK_WriteReg(R13 (SP), 0x20000800)  returns 0x00 (0000ms, 0637ms total)
T206C 001:346 JLINK_WriteReg(R14, 0x20000001)  returns 0x00 (0000ms, 0637ms total)
T206C 001:346 JLINK_WriteReg(R15 (PC), 0x200000F4)  returns 0x00 (0000ms, 0637ms total)
T206C 001:346 JLINK_WriteReg(XPSR, 0x01000000)  returns 0x00 (0000ms, 0637ms total)
T206C 001:346 JLINK_WriteReg(MSP, 0x20000800)  returns 0x00 (0000ms, 0637ms total)
T206C 001:346 JLINK_WriteReg(PSP, 0x20000800)  returns 0x00 (0001ms, 0638ms total)
T206C 001:347 JLINK_WriteReg(CFBP, 0x00000000)  returns 0x00 (0000ms, 0638ms total)
T206C 001:347 JLINK_SetBPEx(Addr = 0x20000000, Type = 0xFFFFFFF2)  returns 0x00000009 (0000ms, 0638ms total)
T206C 001:347 JLINK_Go() (0002ms, 0640ms total)
T206C 001:349 JLINK_IsHalted()  returns FALSE (0001ms, 0641ms total)
T206C 001:352 JLINK_IsHalted()  returns FALSE (0000ms, 0640ms total)
T206C 001:355 JLINK_IsHalted()  returns FALSE (0000ms, 0640ms total)
T206C 001:357 JLINK_IsHalted()  returns FALSE (0000ms, 0640ms total)
T206C 001:359 JLINK_IsHalted()  returns FALSE (0000ms, 0640ms total)
T206C 001:361 JLINK_IsHalted()  returns FALSE (0001ms, 0641ms total)
T206C 001:364 JLINK_IsHalted()  returns FALSE (0000ms, 0640ms total)
T206C 001:366 JLINK_IsHalted()  returns FALSE (0000ms, 0640ms total)
T206C 001:368 JLINK_IsHalted()  returns FALSE (0000ms, 0640ms total)
T206C 001:370 JLINK_IsHalted()  returns FALSE (0000ms, 0640ms total)
T206C 001:372 JLINK_IsHalted()  returns FALSE (0000ms, 0640ms total)
T206C 001:374 JLINK_IsHalted()  returns FALSE (0000ms, 0640ms total)
T206C 001:376 JLINK_IsHalted()  returns FALSE (0000ms, 0640ms total)
T206C 001:378 JLINK_IsHalted()  returns FALSE (0000ms, 0640ms total)
T206C 001:380 JLINK_IsHalted() -- CPU_ReadMem(2 bytes @ 0x20000000)  returns TRUE (0005ms, 0645ms total)
T206C 001:385 JLINK_ReadReg(R15 (PC))  returns 0x20000000 (0000ms, 0640ms total)
T206C 001:385 JLINK_ClrBPEx(BPHandle = 0x00000009)  returns 0x00 (0000ms, 0640ms total)
T206C 001:385 JLINK_ReadReg(R0)  returns 0x00000000 (0000ms, 0640ms total)
T206C 001:385 JLINK_WriteMem(0x20000164, 0x0400 Bytes, ...) -- Data:  34 FA F5 20 FF F7 31 FA FF 20 FF F7 2E FA FC 20 ... -- CPU_WriteMem(1024 bytes @ 0x20000164)  returns 0x400 (0009ms, 0649ms total)
T206C 001:394 JLINK_WriteReg(R0, 0x08001400)  returns 0x00 (0000ms, 0649ms total)
T206C 001:394 JLINK_WriteReg(R1, 0x00000400)  returns 0x00 (0000ms, 0649ms total)
T206C 001:394 JLINK_WriteReg(R2, 0x20000164)  returns 0x00 (0000ms, 0649ms total)
T206C 001:394 JLINK_WriteReg(R3, 0x00000000)  returns 0x00 (0000ms, 0649ms total)
T206C 001:394 JLINK_WriteReg(R4, 0x00000000)  returns 0x00 (0000ms, 0649ms total)
T206C 001:394 JLINK_WriteReg(R5, 0x00000000)  returns 0x00 (0000ms, 0649ms total)
T206C 001:394 JLINK_WriteReg(R6, 0x00000000)  returns 0x00 (0000ms, 0649ms total)
T206C 001:394 JLINK_WriteReg(R7, 0x00000000)  returns 0x00 (0000ms, 0649ms total)
T206C 001:394 JLINK_WriteReg(R8, 0x00000000)  returns 0x00 (0000ms, 0649ms total)
T206C 001:394 JLINK_WriteReg(R9, 0x20000160)  returns 0x00 (0000ms, 0649ms total)
T206C 001:394 JLINK_WriteReg(R10, 0x00000000)  returns 0x00 (0000ms, 0649ms total)
T206C 001:394 JLINK_WriteReg(R11, 0x00000000)  returns 0x00 (0000ms, 0649ms total)
T206C 001:394 JLINK_WriteReg(R12, 0x00000000)  returns 0x00 (0000ms, 0649ms total)
T206C 001:394 JLINK_WriteReg(R13 (SP), 0x20000800)  returns 0x00 (0000ms, 0649ms total)
T206C 001:394 JLINK_WriteReg(R14, 0x20000001)  returns 0x00 (0000ms, 0649ms total)
T206C 001:394 JLINK_WriteReg(R15 (PC), 0x200000F4)  returns 0x00 (0000ms, 0649ms total)
T206C 001:394 JLINK_WriteReg(XPSR, 0x01000000)  returns 0x00 (0000ms, 0649ms total)
T206C 001:394 JLINK_WriteReg(MSP, 0x20000800)  returns 0x00 (0000ms, 0649ms total)
T206C 001:394 JLINK_WriteReg(PSP, 0x20000800)  returns 0x00 (0000ms, 0649ms total)
T206C 001:394 JLINK_WriteReg(CFBP, 0x00000000)  returns 0x00 (0000ms, 0649ms total)
T206C 001:394 JLINK_SetBPEx(Addr = 0x20000000, Type = 0xFFFFFFF2)  returns 0x0000000A (0000ms, 0649ms total)
T206C 001:394 JLINK_Go() (0002ms, 0651ms total)
T206C 001:396 JLINK_IsHalted()  returns FALSE (0000ms, 0651ms total)
T206C 001:398 JLINK_IsHalted()  returns FALSE (0000ms, 0651ms total)
T206C 001:400 JLINK_IsHalted()  returns FALSE (0000ms, 0651ms total)
T206C 001:402 JLINK_IsHalted()  returns FALSE (0000ms, 0651ms total)
T206C 001:404 JLINK_IsHalted()  returns FALSE (0000ms, 0651ms total)
T206C 001:406 JLINK_IsHalted()  returns FALSE (0000ms, 0651ms total)
T206C 001:408 JLINK_IsHalted()  returns FALSE (0001ms, 0652ms total)
T206C 001:411 JLINK_IsHalted()  returns FALSE (0001ms, 0652ms total)
T206C 001:414 JLINK_IsHalted()  returns FALSE (0000ms, 0651ms total)
T206C 001:416 JLINK_IsHalted()  returns FALSE (0000ms, 0651ms total)
T206C 001:418 JLINK_IsHalted()  returns FALSE (0000ms, 0651ms total)
T206C 001:420 JLINK_IsHalted()  returns FALSE (0000ms, 0651ms total)
T206C 001:422 JLINK_IsHalted()  returns FALSE (0000ms, 0651ms total)
T206C 001:424 JLINK_IsHalted()  returns FALSE (0000ms, 0651ms total)
T206C 001:426 JLINK_IsHalted()  returns FALSE (0000ms, 0651ms total)
T206C 001:428 JLINK_IsHalted() -- CPU_ReadMem(2 bytes @ 0x20000000)  returns TRUE (0004ms, 0655ms total)
T206C 001:432 JLINK_ReadReg(R15 (PC))  returns 0x20000000 (0000ms, 0651ms total)
T206C 001:432 JLINK_ClrBPEx(BPHandle = 0x0000000A)  returns 0x00 (0000ms, 0651ms total)
T206C 001:432 JLINK_ReadReg(R0)  returns 0x00000000 (0000ms, 0651ms total)
T206C 001:433 JLINK_WriteMem(0x20000164, 0x0400 Bytes, ...) -- Data:  30 B5 03 46 0C 46 15 46 EE 20 FF F7 2E F8 B1 20 ... -- CPU_WriteMem(1024 bytes @ 0x20000164)  returns 0x400 (0008ms, 0659ms total)
T206C 001:441 JLINK_WriteReg(R0, 0x08001800)  returns 0x00 (0000ms, 0659ms total)
T206C 001:441 JLINK_WriteReg(R1, 0x00000400)  returns 0x00 (0000ms, 0659ms total)
T206C 001:441 JLINK_WriteReg(R2, 0x20000164)  returns 0x00 (0000ms, 0659ms total)
T206C 001:441 JLINK_WriteReg(R3, 0x00000000)  returns 0x00 (0000ms, 0659ms total)
T206C 001:441 JLINK_WriteReg(R4, 0x00000000)  returns 0x00 (0000ms, 0659ms total)
T206C 001:441 JLINK_WriteReg(R5, 0x00000000)  returns 0x00 (0000ms, 0659ms total)
T206C 001:441 JLINK_WriteReg(R6, 0x00000000)  returns 0x00 (0000ms, 0659ms total)
T206C 001:441 JLINK_WriteReg(R7, 0x00000000)  returns 0x00 (0000ms, 0659ms total)
T206C 001:441 JLINK_WriteReg(R8, 0x00000000)  returns 0x00 (0000ms, 0659ms total)
T206C 001:441 JLINK_WriteReg(R9, 0x20000160)  returns 0x00 (0000ms, 0659ms total)
T206C 001:441 JLINK_WriteReg(R10, 0x00000000)  returns 0x00 (0000ms, 0659ms total)
T206C 001:441 JLINK_WriteReg(R11, 0x00000000)  returns 0x00 (0000ms, 0659ms total)
T206C 001:441 JLINK_WriteReg(R12, 0x00000000)  returns 0x00 (0000ms, 0659ms total)
T206C 001:441 JLINK_WriteReg(R13 (SP), 0x20000800)  returns 0x00 (0000ms, 0659ms total)
T206C 001:441 JLINK_WriteReg(R14, 0x20000001)  returns 0x00 (0000ms, 0659ms total)
T206C 001:441 JLINK_WriteReg(R15 (PC), 0x200000F4)  returns 0x00 (0000ms, 0659ms total)
T206C 001:441 JLINK_WriteReg(XPSR, 0x01000000)  returns 0x00 (0000ms, 0659ms total)
T206C 001:441 JLINK_WriteReg(MSP, 0x20000800)  returns 0x00 (0000ms, 0659ms total)
T206C 001:441 JLINK_WriteReg(PSP, 0x20000800)  returns 0x00 (0000ms, 0659ms total)
T206C 001:441 JLINK_WriteReg(CFBP, 0x00000000)  returns 0x00 (0000ms, 0659ms total)
T206C 001:441 JLINK_SetBPEx(Addr = 0x20000000, Type = 0xFFFFFFF2)  returns 0x0000000B (0000ms, 0659ms total)
T206C 001:441 JLINK_Go() (0002ms, 0661ms total)
T206C 001:443 JLINK_IsHalted()  returns FALSE (0000ms, 0661ms total)
T206C 001:447 JLINK_IsHalted()  returns FALSE (0000ms, 0661ms total)
T206C 001:449 JLINK_IsHalted()  returns FALSE (0000ms, 0661ms total)
T206C 001:451 JLINK_IsHalted()  returns FALSE (0000ms, 0661ms total)
T206C 001:453 JLINK_IsHalted()  returns FALSE (0000ms, 0661ms total)
T206C 001:455 JLINK_IsHalted()  returns FALSE (0000ms, 0661ms total)
T206C 001:460 JLINK_IsHalted()  returns FALSE (0000ms, 0661ms total)
T206C 001:462 JLINK_IsHalted()  returns FALSE (0000ms, 0661ms total)
T206C 001:464 JLINK_IsHalted()  returns FALSE (0000ms, 0661ms total)
T206C 001:466 JLINK_IsHalted()  returns FALSE (0000ms, 0661ms total)
T206C 001:468 JLINK_IsHalted()  returns FALSE (0001ms, 0662ms total)
T206C 001:471 JLINK_IsHalted()  returns FALSE (0000ms, 0661ms total)
T206C 001:473 JLINK_IsHalted()  returns FALSE (0001ms, 0662ms total)
T206C 001:476 JLINK_IsHalted() -- CPU_ReadMem(2 bytes @ 0x20000000)  returns TRUE (0003ms, 0664ms total)
T206C 001:479 JLINK_ReadReg(R15 (PC))  returns 0x20000000 (0000ms, 0661ms total)
T206C 001:479 JLINK_ClrBPEx(BPHandle = 0x0000000B)  returns 0x00 (0000ms, 0661ms total)
T206C 001:479 JLINK_ReadReg(R0)  returns 0x00000000 (0000ms, 0661ms total)
T206C 001:480 JLINK_WriteMem(0x20000164, 0x0400 Bytes, ...) -- Data:  FE F7 33 FE 28 0A FE F7 30 FE E8 B2 FE F7 2D FE ... -- CPU_WriteMem(1024 bytes @ 0x20000164)  returns 0x400 (0009ms, 0670ms total)
T206C 001:489 JLINK_WriteReg(R0, 0x08001C00)  returns 0x00 (0000ms, 0670ms total)
T206C 001:489 JLINK_WriteReg(R1, 0x00000400)  returns 0x00 (0000ms, 0670ms total)
T206C 001:489 JLINK_WriteReg(R2, 0x20000164)  returns 0x00 (0000ms, 0670ms total)
T206C 001:489 JLINK_WriteReg(R3, 0x00000000)  returns 0x00 (0000ms, 0670ms total)
T206C 001:489 JLINK_WriteReg(R4, 0x00000000)  returns 0x00 (0000ms, 0670ms total)
T206C 001:489 JLINK_WriteReg(R5, 0x00000000)  returns 0x00 (0000ms, 0670ms total)
T206C 001:489 JLINK_WriteReg(R6, 0x00000000)  returns 0x00 (0000ms, 0670ms total)
T206C 001:489 JLINK_WriteReg(R7, 0x00000000)  returns 0x00 (0000ms, 0670ms total)
T206C 001:489 JLINK_WriteReg(R8, 0x00000000)  returns 0x00 (0000ms, 0670ms total)
T206C 001:489 JLINK_WriteReg(R9, 0x20000160)  returns 0x00 (0000ms, 0670ms total)
T206C 001:489 JLINK_WriteReg(R10, 0x00000000)  returns 0x00 (0000ms, 0670ms total)
T206C 001:489 JLINK_WriteReg(R11, 0x00000000)  returns 0x00 (0000ms, 0670ms total)
T206C 001:489 JLINK_WriteReg(R12, 0x00000000)  returns 0x00 (0000ms, 0670ms total)
T206C 001:489 JLINK_WriteReg(R13 (SP), 0x20000800)  returns 0x00 (0000ms, 0670ms total)
T206C 001:489 JLINK_WriteReg(R14, 0x20000001)  returns 0x00 (0000ms, 0670ms total)
T206C 001:489 JLINK_WriteReg(R15 (PC), 0x200000F4)  returns 0x00 (0000ms, 0670ms total)
T206C 001:489 JLINK_WriteReg(XPSR, 0x01000000)  returns 0x00 (0000ms, 0670ms total)
T206C 001:489 JLINK_WriteReg(MSP, 0x20000800)  returns 0x00 (0000ms, 0670ms total)
T206C 001:489 JLINK_WriteReg(PSP, 0x20000800)  returns 0x00 (0000ms, 0670ms total)
T206C 001:489 JLINK_WriteReg(CFBP, 0x00000000)  returns 0x00 (0000ms, 0670ms total)
T206C 001:489 JLINK_SetBPEx(Addr = 0x20000000, Type = 0xFFFFFFF2)  returns 0x0000000C (0000ms, 0670ms total)
T206C 001:489 JLINK_Go() (0002ms, 0672ms total)
T206C 001:491 JLINK_IsHalted()  returns FALSE (0001ms, 0673ms total)
T206C 001:494 JLINK_IsHalted()  returns FALSE (0000ms, 0672ms total)
T206C 001:496 JLINK_IsHalted()  returns FALSE (0001ms, 0673ms total)
T206C 001:499 JLINK_IsHalted()  returns FALSE (0000ms, 0672ms total)
T206C 001:501 JLINK_IsHalted()  returns FALSE (0000ms, 0672ms total)
T206C 001:503 JLINK_IsHalted()  returns FALSE (0000ms, 0672ms total)
T206C 001:505 JLINK_IsHalted()  returns FALSE (0000ms, 0672ms total)
T206C 001:507 JLINK_IsHalted()  returns FALSE (0000ms, 0672ms total)
T206C 001:509 JLINK_IsHalted()  returns FALSE (0000ms, 0672ms total)
T206C 001:511 JLINK_IsHalted()  returns FALSE (0000ms, 0672ms total)
T206C 001:513 JLINK_IsHalted()  returns FALSE (0001ms, 0673ms total)
T206C 001:516 JLINK_IsHalted()  returns FALSE (0000ms, 0672ms total)
T206C 001:518 JLINK_IsHalted()  returns FALSE (0001ms, 0673ms total)
T206C 001:521 JLINK_IsHalted()  returns FALSE (0000ms, 0672ms total)
T206C 001:523 JLINK_IsHalted() -- CPU_ReadMem(2 bytes @ 0x20000000)  returns TRUE (0004ms, 0676ms total)
T206C 001:527 JLINK_ReadReg(R15 (PC))  returns 0x20000000 (0000ms, 0672ms total)
T206C 001:527 JLINK_ClrBPEx(BPHandle = 0x0000000C)  returns 0x00 (0000ms, 0672ms total)
T206C 001:527 JLINK_ReadReg(R0)  returns 0x00000000 (0000ms, 0672ms total)
T206C 001:527 JLINK_WriteMem(0x20000164, 0x0400 Bytes, ...) -- Data:  FE F7 33 FC FF 20 FE F7 30 FC 00 BD 00 B5 02 46 ... -- CPU_WriteMem(1024 bytes @ 0x20000164)  returns 0x400 (0009ms, 0681ms total)
T206C 001:536 JLINK_WriteReg(R0, 0x08002000)  returns 0x00 (0000ms, 0681ms total)
T206C 001:536 JLINK_WriteReg(R1, 0x00000400)  returns 0x00 (0000ms, 0681ms total)
T206C 001:536 JLINK_WriteReg(R2, 0x20000164)  returns 0x00 (0000ms, 0681ms total)
T206C 001:536 JLINK_WriteReg(R3, 0x00000000)  returns 0x00 (0000ms, 0681ms total)
T206C 001:536 JLINK_WriteReg(R4, 0x00000000)  returns 0x00 (0000ms, 0681ms total)
T206C 001:536 JLINK_WriteReg(R5, 0x00000000)  returns 0x00 (0000ms, 0681ms total)
T206C 001:536 JLINK_WriteReg(R6, 0x00000000)  returns 0x00 (0000ms, 0681ms total)
T206C 001:536 JLINK_WriteReg(R7, 0x00000000)  returns 0x00 (0000ms, 0681ms total)
T206C 001:536 JLINK_WriteReg(R8, 0x00000000)  returns 0x00 (0000ms, 0681ms total)
T206C 001:536 JLINK_WriteReg(R9, 0x20000160)  returns 0x00 (0000ms, 0681ms total)
T206C 001:536 JLINK_WriteReg(R10, 0x00000000)  returns 0x00 (0000ms, 0681ms total)
T206C 001:536 JLINK_WriteReg(R11, 0x00000000)  returns 0x00 (0000ms, 0681ms total)
T206C 001:536 JLINK_WriteReg(R12, 0x00000000)  returns 0x00 (0000ms, 0681ms total)
T206C 001:536 JLINK_WriteReg(R13 (SP), 0x20000800)  returns 0x00 (0000ms, 0681ms total)
T206C 001:536 JLINK_WriteReg(R14, 0x20000001)  returns 0x00 (0000ms, 0681ms total)
T206C 001:536 JLINK_WriteReg(R15 (PC), 0x200000F4)  returns 0x00 (0000ms, 0681ms total)
T206C 001:536 JLINK_WriteReg(XPSR, 0x01000000)  returns 0x00 (0000ms, 0681ms total)
T206C 001:536 JLINK_WriteReg(MSP, 0x20000800)  returns 0x00 (0000ms, 0681ms total)
T206C 001:536 JLINK_WriteReg(PSP, 0x20000800)  returns 0x00 (0000ms, 0681ms total)
T206C 001:536 JLINK_WriteReg(CFBP, 0x00000000)  returns 0x00 (0000ms, 0681ms total)
T206C 001:536 JLINK_SetBPEx(Addr = 0x20000000, Type = 0xFFFFFFF2)  returns 0x0000000D (0000ms, 0681ms total)
T206C 001:536 JLINK_Go() (0002ms, 0683ms total)
T206C 001:538 JLINK_IsHalted()  returns FALSE (0000ms, 0683ms total)
T206C 001:542 JLINK_IsHalted()  returns FALSE (0000ms, 0683ms total)
T206C 001:544 JLINK_IsHalted()  returns FALSE (0000ms, 0683ms total)
T206C 001:546 JLINK_IsHalted()  returns FALSE (0000ms, 0683ms total)
T206C 001:548 JLINK_IsHalted()  returns FALSE (0000ms, 0683ms total)
T206C 001:550 JLINK_IsHalted()  returns FALSE (0000ms, 0683ms total)
T206C 001:552 JLINK_IsHalted()  returns FALSE (0000ms, 0683ms total)
T206C 001:554 JLINK_IsHalted()  returns FALSE (0000ms, 0683ms total)
T206C 001:556 JLINK_IsHalted()  returns FALSE (0000ms, 0683ms total)
T206C 001:558 JLINK_IsHalted()  returns FALSE (0001ms, 0684ms total)
T206C 001:561 JLINK_IsHalted()  returns FALSE (0000ms, 0683ms total)
T206C 001:563 JLINK_IsHalted()  returns FALSE (0000ms, 0683ms total)
T206C 001:565 JLINK_IsHalted()  returns FALSE (0000ms, 0683ms total)
T206C 001:567 JLINK_IsHalted()  returns FALSE (0000ms, 0683ms total)
T206C 001:572 JLINK_IsHalted() -- CPU_ReadMem(2 bytes @ 0x20000000)  returns TRUE (0004ms, 0687ms total)
T206C 001:576 JLINK_ReadReg(R15 (PC))  returns 0x20000000 (0000ms, 0683ms total)
T206C 001:576 JLINK_ClrBPEx(BPHandle = 0x0000000D)  returns 0x00 (0000ms, 0683ms total)
T206C 001:576 JLINK_ReadReg(R0)  returns 0x00000000 (0000ms, 0683ms total)
T206C 001:576 JLINK_WriteMem(0x20000164, 0x0400 Bytes, ...) -- Data:  FE F7 EF F9 E5 48 00 68 C0 EB 40 11 01 EB 80 10 ... -- CPU_WriteMem(1024 bytes @ 0x20000164)  returns 0x400 (0009ms, 0692ms total)
T206C 001:585 JLINK_WriteReg(R0, 0x08002400)  returns 0x00 (0000ms, 0692ms total)
T206C 001:585 JLINK_WriteReg(R1, 0x00000400)  returns 0x00 (0000ms, 0692ms total)
T206C 001:585 JLINK_WriteReg(R2, 0x20000164)  returns 0x00 (0000ms, 0692ms total)
T206C 001:585 JLINK_WriteReg(R3, 0x00000000)  returns 0x00 (0000ms, 0692ms total)
T206C 001:585 JLINK_WriteReg(R4, 0x00000000)  returns 0x00 (0000ms, 0692ms total)
T206C 001:585 JLINK_WriteReg(R5, 0x00000000)  returns 0x00 (0000ms, 0692ms total)
T206C 001:585 JLINK_WriteReg(R6, 0x00000000)  returns 0x00 (0000ms, 0692ms total)
T206C 001:585 JLINK_WriteReg(R7, 0x00000000)  returns 0x00 (0000ms, 0692ms total)
T206C 001:585 JLINK_WriteReg(R8, 0x00000000)  returns 0x00 (0000ms, 0692ms total)
T206C 001:585 JLINK_WriteReg(R9, 0x20000160)  returns 0x00 (0000ms, 0692ms total)
T206C 001:585 JLINK_WriteReg(R10, 0x00000000)  returns 0x00 (0000ms, 0692ms total)
T206C 001:585 JLINK_WriteReg(R11, 0x00000000)  returns 0x00 (0000ms, 0692ms total)
T206C 001:585 JLINK_WriteReg(R12, 0x00000000)  returns 0x00 (0000ms, 0692ms total)
T206C 001:585 JLINK_WriteReg(R13 (SP), 0x20000800)  returns 0x00 (0000ms, 0692ms total)
T206C 001:585 JLINK_WriteReg(R14, 0x20000001)  returns 0x00 (0000ms, 0692ms total)
T206C 001:585 JLINK_WriteReg(R15 (PC), 0x200000F4)  returns 0x00 (0000ms, 0692ms total)
T206C 001:585 JLINK_WriteReg(XPSR, 0x01000000)  returns 0x00 (0000ms, 0692ms total)
T206C 001:585 JLINK_WriteReg(MSP, 0x20000800)  returns 0x00 (0000ms, 0692ms total)
T206C 001:585 JLINK_WriteReg(PSP, 0x20000800)  returns 0x00 (0000ms, 0692ms total)
T206C 001:585 JLINK_WriteReg(CFBP, 0x00000000)  returns 0x00 (0000ms, 0692ms total)
T206C 001:585 JLINK_SetBPEx(Addr = 0x20000000, Type = 0xFFFFFFF2)  returns 0x0000000E (0000ms, 0692ms total)
T206C 001:585 JLINK_Go() (0002ms, 0694ms total)
T206C 001:587 JLINK_IsHalted()  returns FALSE (0000ms, 0694ms total)
T206C 001:589 JLINK_IsHalted()  returns FALSE (0000ms, 0694ms total)
T206C 001:591 JLINK_IsHalted()  returns FALSE (0000ms, 0694ms total)
T206C 001:593 JLINK_IsHalted()  returns FALSE (0001ms, 0695ms total)
T206C 001:596 JLINK_IsHalted()  returns FALSE (0000ms, 0694ms total)
T206C 001:598 JLINK_IsHalted()  returns FALSE (0000ms, 0694ms total)
T206C 001:600 JLINK_IsHalted()  returns FALSE (0000ms, 0694ms total)
T206C 001:602 JLINK_IsHalted()  returns FALSE (0000ms, 0694ms total)
T206C 001:604 JLINK_IsHalted()  returns FALSE (0000ms, 0694ms total)
T206C 001:606 JLINK_IsHalted()  returns FALSE (0000ms, 0694ms total)
T206C 001:608 JLINK_IsHalted()  returns FALSE (0000ms, 0694ms total)
T206C 001:611 JLINK_IsHalted()  returns FALSE (0000ms, 0694ms total)
T206C 001:612 JLINK_IsHalted()  returns FALSE (0000ms, 0694ms total)
T206C 001:615 JLINK_IsHalted()  returns FALSE (0000ms, 0694ms total)
T206C 001:617 JLINK_IsHalted()  returns FALSE (0000ms, 0694ms total)
T206C 001:619 JLINK_IsHalted() -- CPU_ReadMem(2 bytes @ 0x20000000)  returns TRUE (0003ms, 0697ms total)
T206C 001:622 JLINK_ReadReg(R15 (PC))  returns 0x20000000 (0000ms, 0694ms total)
T206C 001:622 JLINK_ClrBPEx(BPHandle = 0x0000000E)  returns 0x00 (0000ms, 0694ms total)
T206C 001:622 JLINK_ReadReg(R0)  returns 0x00000000 (0000ms, 0694ms total)
T206C 001:623 JLINK_WriteMem(0x20000164, 0x0400 Bytes, ...) -- Data:  CB D9 B6 C8 A3 BA 25 73 28 6D 2F 73 29 00 00 00 ... -- CPU_WriteMem(1024 bytes @ 0x20000164)  returns 0x400 (0008ms, 0702ms total)
T206C 001:631 JLINK_WriteReg(R0, 0x08002800)  returns 0x00 (0000ms, 0702ms total)
T206C 001:631 JLINK_WriteReg(R1, 0x00000400)  returns 0x00 (0000ms, 0702ms total)
T206C 001:631 JLINK_WriteReg(R2, 0x20000164)  returns 0x00 (0000ms, 0702ms total)
T206C 001:631 JLINK_WriteReg(R3, 0x00000000)  returns 0x00 (0000ms, 0702ms total)
T206C 001:631 JLINK_WriteReg(R4, 0x00000000)  returns 0x00 (0000ms, 0702ms total)
T206C 001:631 JLINK_WriteReg(R5, 0x00000000)  returns 0x00 (0001ms, 0703ms total)
T206C 001:632 JLINK_WriteReg(R6, 0x00000000)  returns 0x00 (0000ms, 0703ms total)
T206C 001:632 JLINK_WriteReg(R7, 0x00000000)  returns 0x00 (0000ms, 0703ms total)
T206C 001:632 JLINK_WriteReg(R8, 0x00000000)  returns 0x00 (0000ms, 0703ms total)
T206C 001:632 JLINK_WriteReg(R9, 0x20000160)  returns 0x00 (0000ms, 0703ms total)
T206C 001:632 JLINK_WriteReg(R10, 0x00000000)  returns 0x00 (0000ms, 0703ms total)
T206C 001:632 JLINK_WriteReg(R11, 0x00000000)  returns 0x00 (0000ms, 0703ms total)
T206C 001:632 JLINK_WriteReg(R12, 0x00000000)  returns 0x00 (0000ms, 0703ms total)
T206C 001:632 JLINK_WriteReg(R13 (SP), 0x20000800)  returns 0x00 (0000ms, 0703ms total)
T206C 001:632 JLINK_WriteReg(R14, 0x20000001)  returns 0x00 (0000ms, 0703ms total)
T206C 001:632 JLINK_WriteReg(R15 (PC), 0x200000F4)  returns 0x00 (0000ms, 0703ms total)
T206C 001:632 JLINK_WriteReg(XPSR, 0x01000000)  returns 0x00 (0000ms, 0703ms total)
T206C 001:632 JLINK_WriteReg(MSP, 0x20000800)  returns 0x00 (0000ms, 0703ms total)
T206C 001:632 JLINK_WriteReg(PSP, 0x20000800)  returns 0x00 (0000ms, 0703ms total)
T206C 001:632 JLINK_WriteReg(CFBP, 0x00000000)  returns 0x00 (0000ms, 0703ms total)
T206C 001:632 JLINK_SetBPEx(Addr = 0x20000000, Type = 0xFFFFFFF2)  returns 0x0000000F (0000ms, 0703ms total)
T206C 001:632 JLINK_Go() (0001ms, 0704ms total)
T206C 001:634 JLINK_IsHalted()  returns FALSE (0000ms, 0705ms total)
T206C 001:637 JLINK_IsHalted()  returns FALSE (0000ms, 0705ms total)
T206C 001:639 JLINK_IsHalted()  returns FALSE (0000ms, 0705ms total)
T206C 001:641 JLINK_IsHalted()  returns FALSE (0000ms, 0705ms total)
T206C 001:643 JLINK_IsHalted()  returns FALSE (0001ms, 0706ms total)
T206C 001:646 JLINK_IsHalted()  returns FALSE (0000ms, 0705ms total)
T206C 001:650 JLINK_IsHalted()  returns FALSE (0000ms, 0705ms total)
T206C 001:652 JLINK_IsHalted()  returns FALSE (0000ms, 0705ms total)
T206C 001:654 JLINK_IsHalted()  returns FALSE (0000ms, 0705ms total)
T206C 001:656 JLINK_IsHalted()  returns FALSE (0000ms, 0705ms total)
T206C 001:658 JLINK_IsHalted()  returns FALSE (0000ms, 0705ms total)
T206C 001:660 JLINK_IsHalted()  returns FALSE (0000ms, 0705ms total)
T206C 001:662 JLINK_IsHalted()  returns FALSE (0000ms, 0705ms total)
T206C 001:664 JLINK_IsHalted()  returns FALSE (0000ms, 0705ms total)
T206C 001:666 JLINK_IsHalted() -- CPU_ReadMem(2 bytes @ 0x20000000)  returns TRUE (0004ms, 0709ms total)
T206C 001:670 JLINK_ReadReg(R15 (PC))  returns 0x20000000 (0000ms, 0705ms total)
T206C 001:670 JLINK_ClrBPEx(BPHandle = 0x0000000F)  returns 0x00 (0000ms, 0705ms total)
T206C 001:670 JLINK_ReadReg(R0)  returns 0x00000000 (0000ms, 0705ms total)
